time,jumps,iL (InverterState),p (InverterState),q (InverterState),tau (InverterState),vC (InverterState)
0.0,0,3.012913018498755,1.0,1.0,220.0,0.0
3.429826765666009E-5,0,3.0870656279477213,1.0,1.0,220.0000342982677,1.570010866261778
3.429826765666009E-5,1,3.0870656279477213,1.0,-1.0,220.0000342982677,1.570010866261778
8.429831777170684E-5,1,2.9742044664723717,1.0,-1.0,220.00008429831774,3.846264425250932
1.0185170087391388E-4,1,2.934327293818428,1.0,-1.0,220.00010185170078,4.62510932556038
1.0185170087391388E-4,2,2.934327293818428,1.0,1.0,220.00010185170078,4.62510932556038
1.51851737805199E-4,2,3.0399771676843685,1.0,1.0,220.00015185173757,6.866903677376441
1.7149091729889225E-4,2,3.0811486308408855,1.0,1.0,220.00017149091704,7.769195564935247
1.7149091729889225E-4,3,3.0811486308408855,1.0,-1.0,220.00017149091704,7.769195564935247
2.2149099994875368E-4,3,2.965188428263581,1.0,-1.0,220.00022149099973,10.039512555457259
2.3912709109253434E-4,3,2.924032679234434,1.0,-1.0,220.00023912709085,10.819474111980098
2.3912709109253434E-4,4,2.924032679234434,1.0,1.0,220.00023912709085,10.819474111980098
2.8912711350943425E-4,4,3.0265934170502473,1.0,1.0,220.00028912711335,13.052398233483663
3.0915031775166044E-4,4,3.067332812427432,1.0,1.0,220.00030915031763,13.968248299326198
3.0915031775166044E-4,5,3.067332812427432,1.0,-1.0,220.00030915031763,13.968248299326198
3.5915033423166603E-4,5,2.948283544324545,1.0,-1.0,220.00035915033402,16.2270370569087
3.7705869675016537E-4,5,2.9053868161020104,1.0,-1.0,220.00037705869656,17.01426383471113
3.7705869675016537E-4,6,2.9053868161020104,1.0,1.0,220.00037705869656,17.01426383471113
4.270587557934526E-4,6,3.0048640181228703,1.0,1.0,220.00042705875572,19.232052248397927
4.476602028178447E-4,6,3.0455093042487973,1.0,1.0,220.00044766020272,20.167618118234813
4.476602028178447E-4,7,3.0455093042487973,1.0,-1.0,220.00044766020272,20.167618118234813
4.97660215297202E-4,7,2.9233803945904,1.0,-1.0,220.00049766021533,22.409246261002775
5.160394620267301E-4,7,2.8782229516845574,1.0,-1.0,220.00051603946204,23.209990228621137
5.160394620267301E-4,8,2.8782229516845574,1.0,1.0,220.00051603946204,23.209990228621137
5.660394976868012E-4,8,2.974621853474277,1.0,1.0,220.00056603949767,25.406247174168698
5.874264259678992E-4,8,3.0155000594767802,1.0,1.0,220.000587426426,26.367813847236597
5.874264259678992E-4,9,3.0155000594767802,1.0,-1.0,220.000587426426,26.367813847236597
6.374265100167521E-4,9,2.8902922527406623,1.0,-1.0,220.00063742651,28.585777701628587
6.564839805540016E-4,9,2.8422959496848264,1.0,-1.0,220.00065648398055,29.406199121423363
6.564839805540016E-4,10,2.8422959496848264,1.0,1.0,220.00065648398055,29.406199121423363
7.064840098255767E-4,10,2.935622335859045,1.0,1.0,220.0007064840098,31.574348348201152
7.288824573427883E-4,10,2.9770574339289655,1.0,1.0,220.00072888245737,32.568374950929275
7.288824573427883E-4,11,2.9770574339289655,1.0,-1.0,220.00072888245737,32.568374950929275
7.788824843104693E-4,11,2.8487725365969845,1.0,-1.0,220.0007788824845,34.75594638388208
7.988452514246635E-4,11,2.797270435029455,1.0,-1.0,220.00079884525164,35.60237264564095
7.988452514246635E-4,12,2.797270435029455,1.0,1.0,220.00079884525164,35.60237264564095
8.48845300843765E-4,12,2.8875264108982397,1.0,1.0,220.00084884530094,37.73583693905902
8.725087000142198E-4,12,2.929850183173153,1.0,1.0,220.00087250870018,38.76907576544015
8.725087000142198E-4,13,2.929850183173153,1.0,-1.0,220.00087250870018,38.76907576544015
9.225087019218198E-4,13,2.7984982080746175,1.0,-1.0,220.00092250870213,40.92005965601646
9.436384215468581E-4,13,2.7426905065595295,1.0,-1.0,220.00094363842175,41.799336382122256
9.436384215468581E-4,14,2.7426905065595295,1.0,1.0,220.00094363842175,41.799336382122256
9.936384866186694E-4,14,2.8298864705507984,1.0,1.0,220.00099363848685,43.890685391861794
0.0010188544014962748,14,2.873443598657538,1.0,1.0,220.0010188544018,44.9701289307586
0.0010188544014962748,15,2.873443598657538,1.0,-1.0,220.0010188544018,44.9701289307586
0.0010688544689969168,15,2.739034393328031,1.0,-1.0,220.00106885446945,47.078039756601406
0.0010914529123690262,15,2.6779652502497076,1.0,-1.0,220.00109145291282,47.99736942524574
0.0010914529123690262,16,2.6779652502497076,1.0,1.0,220.00109145291282,47.99736942524574
0.0011414529944844035,16,2.762111584996843,1.0,1.0,220.00114145299491,50.03875693622597
0.0011685589003900512,16,2.80727782033727,1.0,1.0,220.00116855890084,51.171856928998274
0.0011685589003900512,17,2.80727782033727,1.0,-1.0,220.00116855890084,51.171856928998274
0.0012185589415843986,17,2.6698100995572824,1.0,-1.0,220.00121855894213,53.22853890671611
0.0012429705080371513,17,2.6023515217447626,1.0,-1.0,220.0012429705087,54.19508784316218
0.0012429705080371513,18,2.6023515217447626,1.0,1.0,220.0012429705087,54.19508784316218
0.0012929705195090578,18,2.683447790670068,1.0,1.0,220.00129297052027,56.17879991228957
0.00132237299564078,18,2.730649229145895,1.0,1.0,220.00132237299636,57.37362965966384
0.00132237299564078,19,2.730649229145895,1.0,-1.0,220.00132237299636,57.37362965966384
0.0013723729963940954,19,2.5901341656552317,1.0,-1.0,220.00137237299708,59.37164752016746
0.0013990286087351505,19,2.514851567924225,1.0,-1.0,220.00139902860943,60.39359603108815
0.0013990286087351505,20,2.514851567924225,1.0,1.0,220.00139902860943,60.39359603108815
0.001449028674695126,20,2.5929132866400524,1.0,1.0,220.0014490286754,62.31027699696473
0.0014812267222481608,20,2.642645798009668,1.0,1.0,220.00148122672303,63.575561641172904
0.0014812267222481608,21,2.642645798009668,1.0,-1.0,220.00148122672303,63.575561641172904
0.0015312267341306264,21,2.4990944538311712,1.0,-1.0,220.00153122673495,65.50681357648523
0.0015606642448985212,21,2.414167405127949,1.0,-1.0,220.00156066424572,66.59305259827694
0.0015606642448985212,22,2.414167405127949,1.0,1.0,220.00156066424572,66.59305259827694
0.0016106643376228862,22,2.4891959861296677,1.0,1.0,220.00161066433853,68.43321518811737
0.0016462929581709035,22,2.5420678903110683,1.0,1.0,220.00164629295907,69.77867593431746
0.0016462929581709035,23,2.5420678903110683,1.0,-1.0,220.00164629295907,69.77867593431746
0.0016962930143164879,23,2.395484511880104,1.0,-1.0,220.00169629301521,71.633297377919
0.0017291967659789017,23,2.298564977511411,1.0,-1.0,220.001729196767,72.79329600275709
0.0017291967659789017,24,2.298564977511411,1.0,1.0,220.001729196767,72.79329600275709
0.0017791967691870296,24,2.370573515844053,1.0,1.0,220.0017791967703,74.54553998868323
0.001819089552713206,24,2.4273633278413413,1.0,1.0,220.00181908955375,75.98216197624609
0.001819089552713206,25,2.4273633278413413,1.0,-1.0,220.00181908955375,75.98216197624609
0.0018690895787513847,25,2.2777576118502627,1.0,-1.0,220.0018690895799,77.7495478701389
0.0019063832313582858,25,2.16565669779336,1.0,-1.0,220.00190638323255,78.99414539807584
0.0019063832313582858,26,2.16565669779336,1.0,1.0,220.00190638323255,78.99414539807584
0.0019563832793331906,26,2.2346569181073996,1.0,1.0,220.0019563832806,80.6454871812422
0.0020016807794052123,26,2.2964144960672996,1.0,1.0,220.00200168078067,82.18600775257552
0.0020016807794052123,27,2.2964144960672996,1.0,-1.0,220.00200168078067,82.18600775257552
0.0020516808181285403,27,2.1437942217400687,1.0,-1.0,220.00205168081948,83.85349369755914
0.0020946566502489535,27,2.012029890372581,1.0,-1.0,220.00209465665156,85.19494281290628
0.0020946566502489535,28,2.012029890372581,1.0,1.0,220.00209465665156,85.19494281290628
0.002144656681136107,28,2.0780385145521567,1.0,1.0,220.00214465668236,86.7296712822355
0.002194656770213429,28,2.1432318690604055,1.0,1.0,220.0021946567715,88.3138456078197
0.002197002643172108,28,2.1462702090192356,1.0,1.0,220.00219700264444,88.38937059902113
0.002197002643172108,29,2.1462702090192356,1.0,-1.0,220.00219700264444,88.38937059902113
0.002247002732529357,29,1.990651886157218,1.0,-1.0,220.0022470027338,89.94301409822694
0.0022970028183975965,29,1.8343635257284188,1.0,-1.0,220.00229700281974,91.37955484891968
0.002297609376532812,29,1.8324636998250716,1.0,-1.0,220.0022976093779,91.39626100692561
0.002297609376532812,30,1.8324636998250716,1.0,1.0,220.0022976093779,91.39626100692561
0.002347609415818678,30,1.8954953432566912,1.0,1.0,220.00234760941711,92.79507774322046
0.0023976094509183792,30,1.9577818700332514,1.0,1.0,220.00239760945215,94.2411212382262
0.0024095394618282623,30,1.9725311937142174,1.0,1.0,220.002409539463,94.59303719622228
0.0024095394618282623,31,1.9725311937142174,1.0,-1.0,220.002409539463,94.59303719622228
0.0024595395155008674,31,1.8139336422385024,1.0,-1.0,220.0024595395168,96.01562415807612
0.0025095395373232647,31,1.6547311936552107,1.0,-1.0,220.00250953953855,97.31840091084857
0.0025209548293782364,31,1.6183061828331038,1.0,-1.0,220.0025209548306,97.59905936435305
0.0025209548293782364,32,1.6183061828331038,1.0,1.0,220.0025209548306,97.59905936435305
0.0025709549154488403,32,1.6783837173169853,1.0,1.0,220.0025709549167,98.83600534709095
0.0026209550033815905,32,1.7377994299002701,1.0,1.0,220.00262095500472,100.11798021414697
0.0026467861659790035,32,1.7682293524560473,1.0,1.0,220.00264678616733,100.79768551746487
0.0026467861659790035,33,1.7682293524560473,1.0,-1.0,220.00264678616733,100.79768551746487
0.0026967861986725867,33,1.6066679440154783,1.0,-1.0,220.00269678619995,102.06528492538564
0.002746786259810778,33,1.4445834863244489,1.0,-1.0,220.00274678626118,103.2113763806181
0.0027748868934387282,33,1.3532834620784153,1.0,-1.0,220.00277488689485,103.80202588210649
0.0027748868934387282,34,1.3532834620784153,1.0,1.0,220.00277488689485,103.80202588210649
0.0028248868982240377,34,1.4104413566225196,1.0,1.0,220.00282488689956,104.8389218636204
0.002874886900185969,34,1.4670398232908486,1.0,1.0,220.00287488690154,105.91868245246765
0.0029231827212639343,34,1.521160280016699,1.0,1.0,220.00292318272267,107.0017860600254
0.0029231827212639343,35,1.521160280016699,1.0,-1.0,220.00292318272267,107.0017860600254
0.0029731827604928844,35,1.3566688494824317,1.0,-1.0,220.00297318276176,108.0833148499043
0.003023182799844177,35,1.1917476919601506,1.0,-1.0,220.00302318280103,109.04065422822524
0.0030731828575881874,35,1.0264609814234564,1.0,-1.0,220.00307318285894,109.87403879310165
0.0030819284445798155,35,0.9975175062318714,1.0,-1.0,220.00308192844597,110.00705123903529
0.0030819284445798155,36,0.9975175062318714,1.0,1.0,220.00308192844597,110.00705123903529
0.003131928479322874,36,1.0518167594843595,1.0,1.0,220.00313192848085,110.77579386232605
0.003181928563681891,36,1.1056931404557881,1.0,1.0,220.0031819285653,111.5852978529659
0.0032319285832502144,36,1.1591279946119166,1.0,1.0,220.00323192858494,112.43508631126893
0.0032754167309405223,36,1.205229264995602,1.0,1.0,220.0032754167327,113.20669266663559
0.0032754167309405223,37,1.205229264995602,1.0,-1.0,220.0032754167327,113.20669266663559
0.0033254168095549516,37,1.0378508790246608,1.0,-1.0,220.00332541681132,114.04942913405853
0.0033754168920276622,37,0.8701659343930217,1.0,-1.0,220.0033754168939,114.76637773063023
0.00342541693550766,37,0.7022376837732147,1.0,-1.0,220.00342541693726,115.35734048450165
0.003475416986643648,37,0.5341291126897695,1.0,-1.0,220.00347541698838,115.82215923089598
0.0035254169909061618,37,0.3659035820040089,1.0,-1.0,220.00352541699272,116.16072241619773
0.003535685592038179,37,0.33134602113599726,1.0,-1.0,220.00353568559385,116.21462074836901
0.003535685592038179,38,0.33134602113599726,1.0,1.0,220.00353568559385,116.21462074836901
0.003585685683890486,38,0.38299711449292,1.0,1.0,220.00358568568566,116.48224441722307
0.0036356857446075194,38,0.43447848071522777,1.0,1.0,220.00363568574633,116.78872472529346
0.0036856857625694457,38,0.48577142136064627,1.0,1.0,220.0036856857644,117.13378453789878
0.0037356858250651858,38,0.5368568546982331,1.0,1.0,220.00373568582685,117.51727900319626
0.003785685883329845,38,0.5877156839546631,1.0,1.0,220.0037856858851,117.93904123070513
0.003835685902206257,38,0.6383288897080487,1.0,1.0,220.003835685904,118.39889570128062
0.003885685904934122,38,0.6886776197784897,1.0,1.0,220.00388568590677,118.89665180140464
0.003933729626466771,38,0.7367898544218817,1.0,1.0,220.0039337296283,119.41044602971981
0.003933729626466771,39,0.7367898544218817,1.0,0.0,220.0039337296283,119.41044602971981
0.0039837296967260944,39,0.6765988436052398,1.0,0.0,220.00398372969858,119.94145182471944
0.004033729729830081,39,0.6161835397215427,1.0,0.0,220.00403372973167,120.42716736831298
0.0040837297303084365,39,0.5555668169127719,1.0,0.0,220.00408372973217,120.86745051796414
0.00413372979959623,39,0.49477139870318165,1.0,0.0,220.00413372980154,121.26215932183769
0.0041837298440652,39,0.43382029195688027,1.0,0.0,220.0041837298461,121.61116420018998
0.004233729849498181,39,0.3727364778764363,1.0,0.0,220.00423372985148,121.9143606299616
0.004283729935734071,39,0.3115427921071207,1.0,0.0,220.0042837299377,122.17165568753259
0.004333729995109086,39,0.2502623871341529,1.0,0.0,220.00433372999711,122.38297530340692
0.004383730002826749,39,0.18891833552305626,1.0,0.0,220.00438373000486,122.54826435653587
0.004433730078597037,39,0.12753354078349985,1.0,0.0,220.0044337300806,122.66748250100855
0.0044837301381246515,39,0.06613116330826678,1.0,0.0,220.00448373014012,122.74060699910187
0.00453373015969633,39,0.004734281617407048,1.0,0.0,220.00453373016165,122.76763470332544
0.00458373017990928,39,-0.0566341129119935,1.0,0.0,220.00458373018193,122.74857891847869
0.004633730218991553,39,-0.11795102676990835,1.0,0.0,220.00463373022103,122.68346683440342
0.0046837302623820585,39,-0.179193458362595,1.0,0.0,220.0046837302644,122.57234729485317
0.004733730265513162,39,-0.2403384121947801,1.0,0.0,220.0047337302675,122.41528652627653
0.00478373027880836,39,-0.301363043036138,1.0,0.0,220.0047837302809,122.21236216842789
0.004833730330909955,39,-0.3622445565243898,1.0,0.0,220.00483373033308,121.96367698631721
0.004883730345944938,39,-0.422960072601184,1.0,0.0,220.0048837303481,121.66934369880238
0.004933730355174573,39,-0.4834869401825911,1.0,0.0,220.00493373035738,121.32949849020557
0.00498373044248591,39,-0.5438026346909516,1.0,0.0,220.00498373044462,120.9442891285015
0.005033730504411644,39,-0.6038844957598207,1.0,0.0,220.00503373050645,120.51388228906517
0.005083730505038328,39,-0.6637100600645732,1.0,0.0,220.0050837305072,120.03846405132902
0.0051337305560494526,39,-0.7232571352638644,1.0,0.0,220.00513373055801,119.51823339241419
0.005174924264622526,39,-0.7720913855770981,1.0,0.0,220.00517492426673,119.05611317912326
0.005174924264622526,40,-0.7720913855770981,1.0,1.0,220.00517492426673,119.05611317912326
0.005224924332168024,40,-0.7211077323849324,1.0,1.0,220.0052249243342,118.49505760364447
0.005274924377335852,40,-0.6698776184710429,1.0,1.0,220.00527492437928,117.97250930328502
0.005324924378600381,40,-0.6184213678919335,1.0,1.0,220.0053249243806,117.4885091185553
0.005374924403644467,40,-0.5667583465427856,1.0,1.0,220.00537492440566,117.04321687153124
0.005424924487163406,40,-0.5149080059986494,1.0,1.0,220.00542492448918,116.63678080654667
0.005474924537349651,40,-0.46288999099982525,1.0,1.0,220.0054749245394,116.26933544160656
0.005524924571614741,40,-0.41072388827383877,1.0,1.0,220.00552492457365,115.94099935430532
0.005535785754217775,40,-0.39937452450099725,1.0,1.0,220.00553578575625,115.87485769957873
0.005535785754217775,41,-0.39937452450099725,1.0,-1.0,220.00553578575625,115.87485769957873
0.0055857858019195,41,-0.5669879889398667,1.0,-1.0,220.00558578580396,115.51334310462666
0.00563578581324749,41,-0.7343044913961978,1.0,-1.0,220.00563578581523,115.02555629005448
0.005685785832872094,41,-0.9012625230450907,1.0,-1.0,220.00568578583466,114.41228439656587
0.00573578589639006,41,-1.067799737431357,1.0,-1.0,220.00573578589817,113.67382274189616
0.005783369121372102,41,-1.2258392337191995,1.0,-1.0,220.0057833691231,112.85510388086026
0.005783369121372102,42,-1.2258392337191995,1.0,1.0,220.0057833691231,112.85510388086026
0.005833369182492375,42,-1.1714463070682235,1.0,1.0,220.0058333691842,111.95464048875793
0.005883369202448474,42,-1.116638965749649,1.0,1.0,220.00588336920413,111.09532091384746
0.005933369208682043,42,-1.0614395958876912,1.0,1.0,220.0059333692103,110.27729301746066
0.005971137111867242,42,-1.0194971039714462,1.0,1.0,220.0059711371135,109.68694162805984
0.005971137111867242,43,-1.0194971039714462,1.0,-1.0,220.0059711371135,109.68694162805984
0.006021137146471487,43,-1.1835913047856303,1.0,-1.0,220.0060211371481,108.86063486424251
0.006071137246343747,43,-1.3471601904986696,1.0,-1.0,220.006071137248,107.91131521828682
0.006121137269995717,43,-1.5101422085081793,1.0,-1.0,220.0061211372717,106.83941133074781
0.006129229628475283,43,-1.5364610976318347,1.0,-1.0,220.00612922963015,106.65443296773017
0.006129229628475283,44,-1.5364610976318347,1.0,1.0,220.00612922963015,106.65443296773017
0.006179229698208824,44,-1.4787566425943657,1.0,1.0,220.00617922969985,105.52198318431378
0.006229229701161782,44,-1.420523690215136,1.0,1.0,220.00622922970283,104.4332155514846
0.0062739783490560145,44,-1.3679783928077802,1.0,1.0,220.00627397835072,103.4960187111389
0.0062739783490560145,45,-1.3679783928077802,1.0,-1.0,220.00627397835072,103.4960187111389
0.006323978362570726,45,-1.5287419668119737,1.0,-1.0,220.0063239783642,102.40983406137424
0.006373978404722018,45,-1.6888497438818135,1.0,-1.0,220.00637397840632,101.20267714117027
0.006402690814053805,45,-1.7804727502788118,1.0,-1.0,220.00640269081575,100.45522113504686
0.006402690814053805,46,-1.7804727502788118,1.0,1.0,220.00640269081575,100.45522113504686
0.006452690851811485,46,-1.71950122740914,1.0,1.0,220.0064526908535,99.14090828395028
0.006502690951587181,46,-1.6579137832879038,1.0,1.0,220.00650269095325,97.87264074259589
0.006525665838102076,46,-1.6294146720881197,1.0,1.0,220.00652566583972,97.30542744832624
0.006525665838102076,47,-1.6294146720881197,1.0,-1.0,220.00652566583972,97.30542744832624
0.006575665922960234,47,-1.7869054003682112,1.0,-1.0,220.00657566592457,96.02417138006513
0.006625665964294135,47,-1.9436444437229894,1.0,-1.0,220.006625665966,94.62444939375587
0.006638150574361052,47,-1.9826572806902003,1.0,-1.0,220.00663815057604,94.25661277648312
0.006638150574361052,48,-1.9826572806902003,1.0,1.0,220.00663815057604,94.25661277648312
0.006688150667249329,48,-1.9184489142741257,1.0,1.0,220.00668815066896,92.79170626102224
0.006738150759066247,48,-1.8535515791772148,1.0,1.0,220.00673815076075,91.37530632582852
0.006747544955914266,48,-1.8412836434015984,1.0,1.0,220.0067475449576,91.11463670240892
0.006747544955914266,49,-1.8412836434015984,1.0,-1.0,220.0067475449576,91.11463670240892
0.006797545033482229,49,-1.9955316686343796,1.0,-1.0,220.00679754503514,89.67503340199482
0.006847545042530061,49,-2.1489540899131394,1.0,-1.0,220.00684754504402,88.11991787339637
0.006849471321563605,49,-2.154847489624861,1.0,-1.0,220.00684947132305,88.05770431460665
0.006849471321563605,50,-2.154847489624861,1.0,1.0,220.00684947132305,88.05770431460665
0.006899471330916885,50,-2.0874250415282742,1.0,1.0,220.00689947133247,86.4645682874363
0.006949458827099467,50,-2.0192666150427225,1.0,1.0,220.00694945882864,84.92290617188019
0.006949458827099467,51,-2.0192666150427225,1.0,-1.0,220.00694945882864,84.92290617188019
0.006999458828564777,51,-2.170301251226745,1.0,-1.0,220.00699945883,83.35134858071382
0.0070438845398817455,51,-2.303750178935213,1.0,-1.0,220.00704388454145,81.8596886749425
0.0070438845398817455,52,-2.303750178935213,1.0,1.0,220.00704388454145,81.8596886749425
0.007093884570713355,52,-2.23312517052387,1.0,1.0,220.0070938845722,80.15611533087672
0.0071369379629929565,52,-2.17166725759149,1.0,1.0,220.00713693796445,78.73195443327573
0.0071369379629929565,53,-2.17166725759149,1.0,-1.0,220.00713693796445,78.73195443327573
0.0071869380612024514,53,-2.319499634502268,1.0,-1.0,220.0071869380626,77.04670194283715
0.00722577273964836,53,-2.4336714651160984,1.0,-1.0,220.0072257727411,75.66139257047774
